Freq.	V(n005)
1.00000000000000e+00	(-6.29074535611751e+01dB,1.75295746915521e+02°)
1.00069338746258e+00	(-6.28954427263934e+01dB,1.75292494248055e+02°)
1.00138725571133e+00	(-6.28834319335328e+01dB,1.75289239344311e+02°)
1.00208160507963e+00	(-6.28714211826509e+01dB,1.75285982202778e+02°)
1.00277643590108e+00	(-6.28594104738053e+01dB,1.75282722821943e+02°)
1.00347174850950e+00	(-6.28473998070538e+01dB,1.75279461200295e+02°)
1.00416754323897e+00	(-6.28353891824542e+01dB,1.75276197336318e+02°)
1.00486382042379e+00	(-6.28233786000644e+01dB,1.75272931228497e+02°)
1.00556058039847e+00	(-6.28113680599424e+01dB,1.75269662875317e+02°)
1.00625782349778e+00	(-6.27993575621462e+01dB,1.75266392275261e+02°)
1.00695555005672e+00	(-6.27873471067341e+01dB,1.75263119426811e+02°)
1.00765376041051e+00	(-6.27753366937643e+01dB,1.75259844328448e+02°)
1.00835245489460e+00	(-6.27633263232949e+01dB,1.75256566978652e+02°)
1.00905163384468e+00	(-6.27513159953846e+01dB,1.75253287375901e+02°)
1.00975129759669e+00	(-6.27393057100915e+01dB,1.75250005518676e+02°)
1.01045144648677e+00	(-6.27272954674745e+01dB,1.75246721405451e+02°)
1.01115208085131e+00	(-6.27152852675919e+01dB,1.75243435034705e+02°)
1.01185320102693e+00	(-6.27032751105027e+01dB,1.75240146404912e+02°)
1.01255480735049e+00	(-6.26912649962654e+01dB,1.75236855514546e+02°)
1.01325690015909e+00	(-6.26792549249391e+01dB,1.75233562362081e+02°)
1.01395947979003e+00	(-6.26672448965826e+01dB,1.75230266945989e+02°)
1.01466254658088e+00	(-6.26552349112549e+01dB,1.75226969264741e+02°)
1.01536610086943e+00	(-6.26432249690152e+01dB,1.75223669316809e+02°)
1.01607014299370e+00	(-6.26312150699226e+01dB,1.75220367100660e+02°)
1.01677467329196e+00	(-6.26192052140365e+01dB,1.75217062614765e+02°)
1.01747969210269e+00	(-6.26071954014160e+01dB,1.75213755857589e+02°)
1.01818519976462e+00	(-6.25951856321208e+01dB,1.75210446827601e+02°)
1.01889119661673e+00	(-6.25831759062102e+01dB,1.75207135523264e+02°)
1.01959768299819e+00	(-6.25711662237438e+01dB,1.75203821943044e+02°)
1.02030465924846e+00	(-6.25591565847814e+01dB,1.75200506085405e+02°)
1.02101212570720e+00	(-6.25471469893827e+01dB,1.75197187948808e+02°)
1.02172008271430e+00	(-6.25351374376074e+01dB,1.75193867531716e+02°)
1.02242853060993e+00	(-6.25231279295156e+01dB,1.75190544832589e+02°)
1.02313746973444e+00	(-6.25111184651671e+01dB,1.75187219849887e+02°)
1.02384690042845e+00	(-6.24991090446221e+01dB,1.75183892582068e+02°)
1.02455682303281e+00	(-6.24870996679407e+01dB,1.75180563027590e+02°)
1.02526723788860e+00	(-6.24750903351832e+01dB,1.75177231184910e+02°)
1.02597814533714e+00	(-6.24630810464098e+01dB,1.75173897052483e+02°)
1.02668954572000e+00	(-6.24510718016811e+01dB,1.75170560628765e+02°)
1.02740143937897e+00	(-6.24390626010574e+01dB,1.75167221912208e+02°)
1.02811382665607e+00	(-6.24270534445992e+01dB,1.75163880901266e+02°)
1.02882670789358e+00	(-6.24150443323674e+01dB,1.75160537594391e+02°)
1.02954008343400e+00	(-6.24030352644226e+01dB,1.75157191990033e+02°)
1.03025395362008e+00	(-6.23910262408256e+01dB,1.75153844086641e+02°)
1.03096831879479e+00	(-6.23790172616372e+01dB,1.75150493882666e+02°)
1.03168317930136e+00	(-6.23670083269186e+01dB,1.75147141376554e+02°)
1.03239853548325e+00	(-6.23549994367307e+01dB,1.75143786566752e+02°)
1.03311438768414e+00	(-6.23429905911346e+01dB,1.75140429451707e+02°)
1.03383073624797e+00	(-6.23309817901917e+01dB,1.75137070029863e+02°)
1.03454758151891e+00	(-6.23189730339632e+01dB,1.75133708299665e+02°)
1.03526492384138e+00	(-6.23069643225104e+01dB,1.75130344259554e+02°)
1.03598276356002e+00	(-6.22949556558950e+01dB,1.75126977907972e+02°)
1.03670110101973e+00	(-6.22829470341784e+01dB,1.75123609243362e+02°)
1.03741993656562e+00	(-6.22709384574223e+01dB,1.75120238264162e+02°)
1.03813927054306e+00	(-6.22589299256884e+01dB,1.75116864968811e+02°)
1.03885910329767e+00	(-6.22469214390385e+01dB,1.75113489355748e+02°)
1.03957943517528e+00	(-6.22349129975345e+01dB,1.75110111423410e+02°)
1.04030026652199e+00	(-6.22229046012384e+01dB,1.75106731170232e+02°)
1.04102159768412e+00	(-6.22108962502123e+01dB,1.75103348594648e+02°)
1.04174342900823e+00	(-6.21988879445182e+01dB,1.75099963695094e+02°)
1.04246576084113e+00	(-6.21868796842185e+01dB,1.75096576470003e+02°)
1.04318859352987e+00	(-6.21748714693755e+01dB,1.75093186917805e+02°)
1.04391192742173e+00	(-6.21628633000515e+01dB,1.75089795036932e+02°)
1.04463576286424e+00	(-6.21508551763090e+01dB,1.75086400825815e+02°)
1.04536010020517e+00	(-6.21388470982106e+01dB,1.75083004282881e+02°)
1.04608493979254e+00	(-6.21268390658190e+01dB,1.75079605406559e+02°)
1.04681028197458e+00	(-6.21148310791969e+01dB,1.75076204195276e+02°)
1.04753612709981e+00	(-6.21028231384070e+01dB,1.75072800647459e+02°)
1.04826247551694e+00	(-6.20908152435125e+01dB,1.75069394761530e+02°)
1.04898932757495e+00	(-6.20788073945761e+01dB,1.75065986535916e+02°)
1.04971668362308e+00	(-6.20667995916611e+01dB,1.75062575969039e+02°)
1.05044454401076e+00	(-6.20547918348305e+01dB,1.75059163059320e+02°)
1.05117290908771e+00	(-6.20427841241477e+01dB,1.75055747805181e+02°)
1.05190177920388e+00	(-6.20307764596759e+01dB,1.75052330205042e+02°)
1.05263115470945e+00	(-6.20187688414786e+01dB,1.75048910257322e+02°)
1.05336103595484e+00	(-6.20067612696194e+01dB,1.75045487960438e+02°)
1.05409142329075e+00	(-6.19947537441617e+01dB,1.75042063312808e+02°)
1.05482231706807e+00	(-6.19827462651693e+01dB,1.75038636312848e+02°)
1.05555371763798e+00	(-6.19707388327060e+01dB,1.75035206958972e+02°)
1.05628562535187e+00	(-6.19587314468355e+01dB,1.75031775249595e+02°)
1.05701804056139e+00	(-6.19467241076220e+01dB,1.75028341183129e+02°)
1.05775096361844e+00	(-6.19347168151293e+01dB,1.75024904757987e+02°)
1.05848439487514e+00	(-6.19227095694216e+01dB,1.75021465972579e+02°)
1.05921833468389e+00	(-6.19107023705631e+01dB,1.75018024825315e+02°)
1.05995278339729e+00	(-6.18986952186181e+01dB,1.75014581314604e+02°)
1.06068774136823e+00	(-6.18866881136510e+01dB,1.75011135438855e+02°)
1.06142320894980e+00	(-6.18746810557262e+01dB,1.75007687196474e+02°)
1.06215918649538e+00	(-6.18626740449083e+01dB,1.75004236585866e+02°)
1.06289567435856e+00	(-6.18506670812619e+01dB,1.75000783605438e+02°)
1.06363267289319e+00	(-6.18386601648518e+01dB,1.74997328253592e+02°)
1.06437018245337e+00	(-6.18266532957428e+01dB,1.74993870528731e+02°)
1.06510820339343e+00	(-6.18146464739998e+01dB,1.74990410429259e+02°)
1.06584673606795e+00	(-6.18026396996877e+01dB,1.74986947953574e+02°)
1.06658578083178e+00	(-6.17906329728717e+01dB,1.74983483100078e+02°)
1.06732533803997e+00	(-6.17786262936169e+01dB,1.74980015867168e+02°)
1.06806540804786e+00	(-6.17666196619885e+01dB,1.74976546253244e+02°)
1.06880599121102e+00	(-6.17546130780520e+01dB,1.74973074256701e+02°)
1.06954708788526e+00	(-6.17426065418728e+01dB,1.74969599875935e+02°)
1.07028869842664e+00	(-6.17306000535163e+01dB,1.74966123109342e+02°)
1.07103082319147e+00	(-6.17185936130483e+01dB,1.74962643955314e+02°)
1.07177346253630e+00	(-6.17065872205343e+01dB,1.74959162412246e+02°)
1.07251661681795e+00	(-6.16945808760402e+01dB,1.74955678478527e+02°)
1.07326028639347e+00	(-6.16825745796319e+01dB,1.74952192152550e+02°)
1.07400447162014e+00	(-6.16705683313753e+01dB,1.74948703432703e+02°)
1.07474917285551e+00	(-6.16585621313365e+01dB,1.74945212317376e+02°)
1.07549439045739e+00	(-6.16465559795817e+01dB,1.74941718804956e+02°)
1.07624012478381e+00	(-6.16345498761770e+01dB,1.74938222893830e+02°)
1.07698637619306e+00	(-6.16225438211888e+01dB,1.74934724582384e+02°)
1.07773314504368e+00	(-6.16105378146836e+01dB,1.74931223869001e+02°)
1.07848043169446e+00	(-6.15985318567278e+01dB,1.74927720752066e+02°)
1.07922823650444e+00	(-6.15865259473880e+01dB,1.74924215229961e+02°)
1.07997655983290e+00	(-6.15745200867309e+01dB,1.74920707301068e+02°)
1.08072540203936e+00	(-6.15625142748233e+01dB,1.74917196963768e+02°)
1.08147476348363e+00	(-6.15505085117321e+01dB,1.74913684216439e+02°)
1.08222464452573e+00	(-6.15385027975242e+01dB,1.74910169057460e+02°)
1.08297504552594e+00	(-6.15264971322667e+01dB,1.74906651485209e+02°)
1.08372596684479e+00	(-6.15144915160266e+01dB,1.74903131498062e+02°)
1.08447740884308e+00	(-6.15024859488714e+01dB,1.74899609094395e+02°)
1.08522937188182e+00	(-6.14904804308682e+01dB,1.74896084272582e+02°)
1.08598185632231e+00	(-6.14784749620845e+01dB,1.74892557030996e+02°)
1.08673486252607e+00	(-6.14664695425877e+01dB,1.74889027368010e+02°)
1.08748839085490e+00	(-6.14544641724456e+01dB,1.74885495281994e+02°)
1.08824244167082e+00	(-6.14424588517257e+01dB,1.74881960771320e+02°)
1.08899701533612e+00	(-6.14304535804959e+01dB,1.74878423834357e+02°)
1.08975211221334e+00	(-6.14184483588241e+01dB,1.74874884469472e+02°)
1.09050773266527e+00	(-6.14064431867781e+01dB,1.74871342675034e+02°)
1.09126387705495e+00	(-6.13944380644261e+01dB,1.74867798449407e+02°)
1.09202054574567e+00	(-6.13824329918362e+01dB,1.74864251790958e+02°)
1.09277773910097e+00	(-6.13704279690766e+01dB,1.74860702698051e+02°)
1.09353545748465e+00	(-6.13584229962157e+01dB,1.74857151169048e+02°)
1.09429370126075e+00	(-6.13464180733219e+01dB,1.74853597202311e+02°)
1.09505247079359e+00	(-6.13344132004638e+01dB,1.74850040796202e+02°)
1.09581176644771e+00	(-6.13224083777099e+01dB,1.74846481949081e+02°)
1.09657158858791e+00	(-6.13104036051289e+01dB,1.74842920659307e+02°)
1.09733193757926e+00	(-6.12983988827897e+01dB,1.74839356925237e+02°)
1.09809281378707e+00	(-6.12863942107611e+01dB,1.74835790745228e+02°)
1.09885421757690e+00	(-6.12743895891121e+01dB,1.74832222117637e+02°)
1.09961614931457e+00	(-6.12623850179118e+01dB,1.74828651040818e+02°)
1.10037860936615e+00	(-6.12503804972294e+01dB,1.74825077513125e+02°)
1.10114159809798e+00	(-6.12383760271341e+01dB,1.74821501532911e+02°)
1.10190511587663e+00	(-6.12263716076954e+01dB,1.74817923098527e+02°)
1.10266916306893e+00	(-6.12143672389825e+01dB,1.74814342208325e+02°)
1.10343374004198e+00	(-6.12023629210652e+01dB,1.74810758860653e+02°)
1.10419884716311e+00	(-6.11903586540130e+01dB,1.74807173053861e+02°)
1.10496448479993e+00	(-6.11783544378957e+01dB,1.74803584786296e+02°)
1.10573065332029e+00	(-6.11663502727831e+01dB,1.74799994056305e+02°)
1.10649735309229e+00	(-6.11543461587451e+01dB,1.74796400862233e+02°)
1.10726458448430e+00	(-6.11423420958518e+01dB,1.74792805202424e+02°)
1.10803234786494e+00	(-6.11303380841732e+01dB,1.74789207075222e+02°)
1.10880064360309e+00	(-6.11183341237796e+01dB,1.74785606478970e+02°)
1.10956947206786e+00	(-6.11063302147414e+01dB,1.74782003412009e+02°)
1.11033883362866e+00	(-6.10943263571288e+01dB,1.74778397872679e+02°)
1.11110872865511e+00	(-6.10823225510123e+01dB,1.74774789859320e+02°)
1.11187915751713e+00	(-6.10703187964627e+01dB,1.74771179370269e+02°)
1.11265012058485e+00	(-6.10583150935504e+01dB,1.74767566403864e+02°)
1.11342161822871e+00	(-6.10463114423465e+01dB,1.74763950958441e+02°)
1.11419365081935e+00	(-6.10343078429216e+01dB,1.74760333032335e+02°)
1.11496621872772e+00	(-6.10223042953469e+01dB,1.74756712623880e+02°)
1.11573932232498e+00	(-6.10103007996933e+01dB,1.74753089731410e+02°)
1.11651296198259e+00	(-6.09982973560320e+01dB,1.74749464353255e+02°)
1.11728713807224e+00	(-6.09862939644343e+01dB,1.74745836487748e+02°)
1.11806185096588e+00	(-6.09742906249716e+01dB,1.74742206133218e+02°)
1.11883710103573e+00	(-6.09622873377152e+01dB,1.74738573287994e+02°)
1.11961288865426e+00	(-6.09502841027369e+01dB,1.74734937950403e+02°)
1.12038921419420e+00	(-6.09382809201081e+01dB,1.74731300118773e+02°)
1.12116607802853e+00	(-6.09262777899007e+01dB,1.74727659791429e+02°)
1.12194348053050e+00	(-6.09142747121865e+01dB,1.74724016966696e+02°)
1.12272142207363e+00	(-6.09022716870375e+01dB,1.74720371642897e+02°)
1.12349990303167e+00	(-6.08902687145256e+01dB,1.74716723818355e+02°)
1.12427892377864e+00	(-6.08782657947230e+01dB,1.74713073491391e+02°)
1.12505848468883e+00	(-6.08662629277020e+01dB,1.74709420660326e+02°)
1.12583858613678e+00	(-6.08542601135349e+01dB,1.74705765323480e+02°)
1.12661922849730e+00	(-6.08422573522940e+01dB,1.74702107479170e+02°)
1.12740041214544e+00	(-6.08302546440520e+01dB,1.74698447125714e+02°)
1.12818213745653e+00	(-6.08182519888815e+01dB,1.74694784261428e+02°)
1.12896440480615e+00	(-6.08062493868552e+01dB,1.74691118884628e+02°)
1.12974721457015e+00	(-6.07942468380458e+01dB,1.74687450993627e+02°)
1.13053056712461e+00	(-6.07822443425264e+01dB,1.74683780586739e+02°)
1.13131446284592e+00	(-6.07702419003700e+01dB,1.74680107662275e+02°)
1.13209890211070e+00	(-6.07582395116496e+01dB,1.74676432218547e+02°)
1.13288388529582e+00	(-6.07462371764384e+01dB,1.74672754253865e+02°)
1.13366941277844e+00	(-6.07342348948099e+01dB,1.74669073766537e+02°)
1.13445548493598e+00	(-6.07222326668374e+01dB,1.74665390754871e+02°)
1.13524210214609e+00	(-6.07102304925944e+01dB,1.74661705217175e+02°)
1.13602926478671e+00	(-6.06982283721546e+01dB,1.74658017151753e+02°)
1.13681697323604e+00	(-6.06862263055916e+01dB,1.74654326556910e+02°)
1.13760522787253e+00	(-6.06742242929793e+01dB,1.74650633430951e+02°)
1.13839402907490e+00	(-6.06622223343916e+01dB,1.74646937772177e+02°)
1.13918337722214e+00	(-6.06502204299025e+01dB,1.74643239578890e+02°)
1.13997327269348e+00	(-6.06382185795860e+01dB,1.74639538849390e+02°)
1.14076371586845e+00	(-6.06262167835165e+01dB,1.74635835581977e+02°)
1.14155470712680e+00	(-6.06142150417683e+01dB,1.74632129774950e+02°)
1.14234624684857e+00	(-6.06022133544157e+01dB,1.74628421426604e+02°)
1.14313833541406e+00	(-6.05902117215332e+01dB,1.74624710535237e+02°)
1.14393097320383e+00	(-6.05782101431955e+01dB,1.74620997099143e+02°)
1.14472416059871e+00	(-6.05662086194774e+01dB,1.74617281116617e+02°)
1.14551789797978e+00	(-6.05542071504535e+01dB,1.74613562585952e+02°)
1.14631218572840e+00	(-6.05422057361989e+01dB,1.74609841505439e+02°)
1.14710702422619e+00	(-6.05302043767885e+01dB,1.74606117873369e+02°)
1.14790241385503e+00	(-6.05182030722976e+01dB,1.74602391688033e+02°)
1.14869835499706e+00	(-6.05062018228012e+01dB,1.74598662947718e+02°)
1.14949484803470e+00	(-6.04942006283747e+01dB,1.74594931650713e+02°)
1.15029189335063e+00	(-6.04821994890936e+01dB,1.74591197795304e+02°)
1.15108949132779e+00	(-6.04701984050334e+01dB,1.74587461379777e+02°)
1.15188764234938e+00	(-6.04581973762696e+01dB,1.74583722402415e+02°)
1.15268634679889e+00	(-6.04461964028782e+01dB,1.74579980861504e+02°)
1.15348560506005e+00	(-6.04341954849348e+01dB,1.74576236755324e+02°)
1.15428541751686e+00	(-6.04221946225154e+01dB,1.74572490082157e+02°)
1.15508578455361e+00	(-6.04101938156961e+01dB,1.74568740840284e+02°)
1.15588670655483e+00	(-6.03981930645530e+01dB,1.74564989027983e+02°)
1.15668818390531e+00	(-6.03861923691623e+01dB,1.74561234643532e+02°)
1.15749021699015e+00	(-6.03741917296004e+01dB,1.74557477685209e+02°)
1.15829280619467e+00	(-6.03621911459438e+01dB,1.74553718151290e+02°)
1.15909595190448e+00	(-6.03501906182690e+01dB,1.74549956040048e+02°)
1.15989965450546e+00	(-6.03381901466526e+01dB,1.74546191349759e+02°)
1.16070391438375e+00	(-6.03261897311715e+01dB,1.74542424078694e+02°)
1.16150873192575e+00	(-6.03141893719025e+01dB,1.74538654225126e+02°)
1.16231410751814e+00	(-6.03021890689225e+01dB,1.74534881787324e+02°)
1.16312004154788e+00	(-6.02901888223087e+01dB,1.74531106763559e+02°)
1.16392653440216e+00	(-6.02781886321382e+01dB,1.74527329152098e+02°)
1.16473358646848e+00	(-6.02661884984883e+01dB,1.74523548951209e+02°)
1.16554119813459e+00	(-6.02541884214364e+01dB,1.74519766159159e+02°)
1.16634936978850e+00	(-6.02421884010599e+01dB,1.74515980774213e+02°)
1.16715810181850e+00	(-6.02301884374366e+01dB,1.74512192794633e+02°)
1.16796739461315e+00	(-6.02181885306440e+01dB,1.74508402218685e+02°)
1.16877724856127e+00	(-6.02061886807600e+01dB,1.74504609044629e+02°)
1.16958766405198e+00	(-6.01941888878625e+01dB,1.74500813270727e+02°)
1.17039864147462e+00	(-6.01821891520295e+01dB,1.74497014895237e+02°)
1.17121018121884e+00	(-6.01701894733391e+01dB,1.74493213916420e+02°)
1.17202228367454e+00	(-6.01581898518697e+01dB,1.74489410332532e+02°)
1.17283494923191e+00	(-6.01461902876994e+01dB,1.74485604141831e+02°)
1.17364817828138e+00	(-6.01341907809067e+01dB,1.74481795342571e+02°)
1.17446197121368e+00	(-6.01221913315702e+01dB,1.74477983933007e+02°)
1.17527632841980e+00	(-6.01101919397686e+01dB,1.74474169911392e+02°)
1.17609125029099e+00	(-6.00981926055805e+01dB,1.74470353275979e+02°)
1.17690673721880e+00	(-6.00861933290849e+01dB,1.74466534025019e+02°)
1.17772278959501e+00	(-6.00741941103607e+01dB,1.74462712156762e+02°)
1.17853940781171e+00	(-6.00621949494870e+01dB,1.74458887669456e+02°)
1.17935659226125e+00	(-6.00501958465430e+01dB,1.74455060561350e+02°)
1.18017434333623e+00	(-6.00381968016080e+01dB,1.74451230830690e+02°)
1.18099266142956e+00	(-6.00261978147613e+01dB,1.74447398475723e+02°)
1.18181154693440e+00	(-6.00141988860825e+01dB,1.74443563494693e+02°)
1.18263100024417e+00	(-6.00022000156512e+01dB,1.74439725885843e+02°)
1.18345102175260e+00	(-5.99902012035471e+01dB,1.74435885647416e+02°)
1.18427161185366e+00	(-5.99782024498500e+01dB,1.74432042777653e+02°)
1.18509277094161e+00	(-5.99662037546399e+01dB,1.74428197274795e+02°)
1.18591449941098e+00	(-5.99542051179968e+01dB,1.74424349137080e+02°)
1.18673679765656e+00	(-5.99422065400009e+01dB,1.74420498362748e+02°)
1.18755966607344e+00	(-5.99302080207324e+01dB,1.74416644950035e+02°)
1.18838310505696e+00	(-5.99182095602717e+01dB,1.74412788897177e+02°)
1.18920711500275e+00	(-5.99062111586992e+01dB,1.74408930202408e+02°)
1.19003169630671e+00	(-5.98942128160956e+01dB,1.74405068863963e+02°)
1.19085684936500e+00	(-5.98822145325415e+01dB,1.74401204880075e+02°)
1.19168257457408e+00	(-5.98702163081177e+01dB,1.74397338248974e+02°)
1.19250887233066e+00	(-5.98582181429053e+01dB,1.74393468968892e+02°)
1.19333574303175e+00	(-5.98462200369850e+01dB,1.74389597038057e+02°)
1.19416318707462e+00	(-5.98342219904382e+01dB,1.74385722454699e+02°)
1.19499120485682e+00	(-5.98222240033461e+01dB,1.74381845217044e+02°)
1.19581979677616e+00	(-5.98102260757899e+01dB,1.74377965323319e+02°)
1.19664896323075e+00	(-5.97982282078511e+01dB,1.74374082771748e+02°)
1.19747870461896e+00	(-5.97862303996114e+01dB,1.74370197560555e+02°)
1.19830902133945e+00	(-5.97742326511524e+01dB,1.74366309687964e+02°)
1.19913991379115e+00	(-5.97622349625558e+01dB,1.74362419152196e+02°)
1.19997138237325e+00	(-5.97502373339037e+01dB,1.74358525951472e+02°)
1.20080342748524e+00	(-5.97382397652779e+01dB,1.74354630084011e+02°)
1.20163604952689e+00	(-5.97262422567606e+01dB,1.74350731548031e+02°)
1.20246924889821e+00	(-5.97142448084341e+01dB,1.74346830341751e+02°)
1.20330302599954e+00	(-5.97022474203806e+01dB,1.74342926463387e+02°)
1.20413738123145e+00	(-5.96902500926827e+01dB,1.74339019911153e+02°)
1.20497231499482e+00	(-5.96782528254229e+01dB,1.74335110683263e+02°)
1.20580782769080e+00	(-5.96662556186839e+01dB,1.74331198777932e+02°)
1.20664391972080e+00	(-5.96542584725484e+01dB,1.74327284193370e+02°)
1.20748059148653e+00	(-5.96422613870994e+01dB,1.74323366927788e+02°)
1.20831784338998e+00	(-5.96302643624198e+01dB,1.74319446979396e+02°)
1.20915567583340e+00	(-5.96182673985928e+01dB,1.74315524346403e+02°)
1.20999408921933e+00	(-5.96062704957017e+01dB,1.74311599027016e+02°)
1.21083308395059e+00	(-5.95942736538297e+01dB,1.74307671019441e+02°)
1.21167266043028e+00	(-5.95822768730603e+01dB,1.74303740321884e+02°)
1.21251281906177e+00	(-5.95702801534771e+01dB,1.74299806932549e+02°)
1.21335356024873e+00	(-5.95582834951638e+01dB,1.74295870849639e+02°)
1.21419488439508e+00	(-5.95462868982042e+01dB,1.74291932071356e+02°)
1.21503679190505e+00	(-5.95342903626822e+01dB,1.74287990595901e+02°)
1.21587928318313e+00	(-5.95222938886818e+01dB,1.74284046421473e+02°)
1.21672235863411e+00	(-5.95102974762871e+01dB,1.74280099546271e+02°)
1.21756601866302e+00	(-5.94983011255825e+01dB,1.74276149968493e+02°)
