Freq.	V(n003)
1.00000000000000e+00	(-4.27210162330847e-06dB,-6.43269541076432e-02°)
1.00069338746258e+00	(-4.27800821391607e-06dB,-6.43715575861137e-02°)
1.00138725571133e+00	(-4.28392300227953e-06dB,-6.44161919920249e-02°)
1.00208160507963e+00	(-4.28984599032751e-06dB,-6.44608573468214e-02°)
1.00277643590108e+00	(-4.29577719638226e-06dB,-6.45055536719626e-02°)
1.00347174850950e+00	(-4.30171663394440e-06dB,-6.45502809889229e-02°)
1.00416754323897e+00	(-4.30766430783557e-06dB,-6.45950393191915e-02°)
1.00486382042379e+00	(-4.31362023348504e-06dB,-6.46398286842726e-02°)
1.00556058039847e+00	(-4.31958442150044e-06dB,-6.46846491056851e-02°)
1.00625782349778e+00	(-4.32555688056074e-06dB,-6.47295006049632e-02°)
1.00695555005672e+00	(-4.33153762995251e-06dB,-6.47743832036555e-02°)
1.00765376041051e+00	(-4.33752667642606e-06dB,-6.48192969233259e-02°)
1.00835245489460e+00	(-4.34352402673170e-06dB,-6.48642417855533e-02°)
1.00905163384468e+00	(-4.34952970015602e-06dB,-6.49092178119315e-02°)
1.00975129759669e+00	(-4.35554370152067e-06dB,-6.49542250240691e-02°)
1.01045144648677e+00	(-4.36156604914790e-06dB,-6.49992634435897e-02°)
1.01115208085131e+00	(-4.36759675171667e-06dB,-6.50443330921323e-02°)
1.01185320102693e+00	(-4.37363581597731e-06dB,-6.50894339913503e-02°)
1.01255480735049e+00	(-4.37968326507369e-06dB,-6.51345661629126e-02°)
1.01325690015909e+00	(-4.38573909900584e-06dB,-6.51797296285029e-02°)
1.01395947979003e+00	(-4.39180333127436e-06dB,-6.52249244098199e-02°)
1.01466254658088e+00	(-4.39787598116584e-06dB,-6.52701505285774e-02°)
1.01536610086943e+00	(-4.40395705157327e-06dB,-6.53154080065045e-02°)
1.01607014299370e+00	(-4.41004655985457e-06dB,-6.53606968653449e-02°)
1.01677467329196e+00	(-4.41614451468871e-06dB,-6.54060171268577e-02°)
1.01747969210269e+00	(-4.42225093054064e-06dB,-6.54513688128171e-02°)
1.01818519976462e+00	(-4.42836582091095e-06dB,-6.54967519450121e-02°)
1.01889119661673e+00	(-4.43448918676400e-06dB,-6.55421665452472e-02°)
1.01959768299819e+00	(-4.44062105124368e-06dB,-6.55876126353418e-02°)
1.02030465924846e+00	(-4.44676142302895e-06dB,-6.56330902371303e-02°)
1.02101212570720e+00	(-4.45291031272744e-06dB,-6.56785993724626e-02°)
1.02172008271430e+00	(-4.45906772998244e-06dB,-6.57241400632035e-02°)
1.02242853060993e+00	(-4.46523368829458e-06dB,-6.57697123312329e-02°)
1.02313746973444e+00	(-4.47140820405743e-06dB,-6.58153161984461e-02°)
1.02384690042845e+00	(-4.47759128112833e-06dB,-6.58609516867534e-02°)
1.02455682303281e+00	(-4.48378294168685e-06dB,-6.59066188180804e-02°)
1.02526723788860e+00	(-4.48998318766165e-06dB,-6.59523176143678e-02°)
1.02597814533714e+00	(-4.49619203737499e-06dB,-6.59980480975716e-02°)
1.02668954572000e+00	(-4.50240949757718e-06dB,-6.60438102896630e-02°)
1.02740143937897e+00	(-4.50863558466182e-06dB,-6.60896042126284e-02°)
1.02811382665607e+00	(-4.51487030923652e-06dB,-6.61354298884696e-02°)
1.02882670789358e+00	(-4.52111368480191e-06dB,-6.61812873392033e-02°)
1.02954008343400e+00	(-4.52736571714396e-06dB,-6.62271765868619e-02°)
1.03025395362008e+00	(-4.53362642265627e-06dB,-6.62730976534927e-02°)
1.03096831879479e+00	(-4.53989581483946e-06dB,-6.63190505611587e-02°)
1.03168317930136e+00	(-4.54617390719412e-06dB,-6.63650353319376e-02°)
1.03239853548325e+00	(-4.55246070550626e-06dB,-6.64110519879232e-02°)
1.03311438768414e+00	(-4.55875622713379e-06dB,-6.64571005512238e-02°)
1.03383073624797e+00	(-4.56506047689836e-06dB,-6.65031810439636e-02°)
1.03454758151891e+00	(-4.57137348276552e-06dB,-6.65492934882819e-02°)
1.03526492384138e+00	(-4.57769523316334e-06dB,-6.65954379063335e-02°)
1.03598276356002e+00	(-4.58402576280765e-06dB,-6.66416143202884e-02°)
1.03670110101973e+00	(-4.59036507362713e-06dB,-6.66878227523319e-02°)
1.03741993656562e+00	(-4.59671317719373e-06dB,-6.67340632246650e-02°)
1.03813927054306e+00	(-4.60307008700805e-06dB,-6.67803357595039e-02°)
1.03885910329767e+00	(-4.60943581464207e-06dB,-6.68266403790802e-02°)
1.03957943517528e+00	(-4.61581037456070e-06dB,-6.68729771056409e-02°)
1.04030026652199e+00	(-4.62219377833592e-06dB,-6.69193459614485e-02°)
1.04102159768412e+00	(-4.62858603368236e-06dB,-6.69657469687808e-02°)
1.04174342900823e+00	(-4.63498715988661e-06dB,-6.70121801499313e-02°)
1.04246576084113e+00	(-4.64139716659196e-06dB,-6.70586455272086e-02°)
1.04318859352987e+00	(-4.64781606633469e-06dB,-6.71051431229372e-02°)
1.04391192742173e+00	(-4.65424386779378e-06dB,-6.71516729594567e-02°)
1.04463576286424e+00	(-4.66068058350551e-06dB,-6.71982350591224e-02°)
1.04536010020517e+00	(-4.66712623757810e-06dB,-6.72448294443049e-02°)
1.04608493979254e+00	(-4.67358082711859e-06dB,-6.72914561373906e-02°)
1.04681028197458e+00	(-4.68004437334220e-06dB,-6.73381151607812e-02°)
1.04753612709981e+00	(-4.68651688299927e-06dB,-6.73848065368941e-02°)
1.04826247551694e+00	(-4.69299837344771e-06dB,-6.74315302881621e-02°)
1.04898932757495e+00	(-4.69948885336649e-06dB,-6.74782864370335e-02°)
1.04971668362308e+00	(-4.70598834204220e-06dB,-6.75250750059724e-02°)
1.05044454401076e+00	(-4.71249684140350e-06dB,-6.75718960174583e-02°)
1.05117290908771e+00	(-4.71901437459430e-06dB,-6.76187494939863e-02°)
1.05190177920388e+00	(-4.72554094932923e-06dB,-6.76656354580671e-02°)
1.05263115470945e+00	(-4.73207657428727e-06dB,-6.77125539322271e-02°)
1.05336103595484e+00	(-4.73862127068365e-06dB,-6.77595049390083e-02°)
1.05409142329075e+00	(-4.74517503755407e-06dB,-6.78064885009682e-02°)
1.05482231706807e+00	(-4.75173790189974e-06dB,-6.78535046406801e-02°)
1.05555371763798e+00	(-4.75830987143529e-06dB,-6.79005533807328e-02°)
1.05628562535187e+00	(-4.76489095773268e-06dB,-6.79476347437308e-02°)
1.05701804056139e+00	(-4.77148117332820e-06dB,-6.79947487522945e-02°)
1.05775096361844e+00	(-4.77808053075813e-06dB,-6.80418954290596e-02°)
1.05848439487514e+00	(-4.78468904641607e-06dB,-6.80890747966778e-02°)
1.05921833468389e+00	(-4.79130672223069e-06dB,-6.81362868778164e-02°)
1.05995278339729e+00	(-4.79793358713186e-06dB,-6.81835316951584e-02°)
1.06068774136823e+00	(-4.80456963919095e-06dB,-6.82308092714025e-02°)
1.06142320894980e+00	(-4.81121490058751e-06dB,-6.82781196292633e-02°)
1.06215918649538e+00	(-4.81786938096485e-06dB,-6.83254627914709e-02°)
1.06289567435856e+00	(-4.82453308996626e-06dB,-6.83728387807713e-02°)
1.06363267289319e+00	(-4.83120604109237e-06dB,-6.84202476199263e-02°)
1.06437018245337e+00	(-4.83788825170110e-06dB,-6.84676893317136e-02°)
1.06510820339343e+00	(-4.84457973336440e-06dB,-6.85151639389263e-02°)
1.06584673606795e+00	(-4.85128049765424e-06dB,-6.85626714643737e-02°)
1.06658578083178e+00	(-4.85799055614256e-06dB,-6.86102119308807e-02°)
1.06732533803997e+00	(-4.86470992425865e-06dB,-6.86577853612881e-02°)
1.06806540804786e+00	(-4.87143861453878e-06dB,-6.87053917784524e-02°)
1.06880599121102e+00	(-4.87817663951924e-06dB,-6.87530312052463e-02°)
1.06954708788526e+00	(-4.88492400980766e-06dB,-6.88007036645580e-02°)
1.07028869842664e+00	(-4.89168074276197e-06dB,-6.88484091792918e-02°)
1.07103082319147e+00	(-4.89844684513249e-06dB,-6.88961477723676e-02°)
1.07177346253630e+00	(-4.90522233813445e-06dB,-6.89439194667215e-02°)
1.07251661681795e+00	(-4.91200722562518e-06dB,-6.89917242853054e-02°)
1.07326028639347e+00	(-4.91880152785561e-06dB,-6.90395622510870e-02°)
1.07400447162014e+00	(-4.92560525832633e-06dB,-6.90874333870502e-02°)
1.07474917285551e+00	(-4.93241842668066e-06dB,-6.91353377161944e-02°)
1.07549439045739e+00	(-4.93924104256189e-06dB,-6.91832752615353e-02°)
1.07624012478381e+00	(-4.94607312911393e-06dB,-6.92312460461046e-02°)
1.07698637619306e+00	(-4.95291469019410e-06dB,-6.92792500929496e-02°)
1.07773314504368e+00	(-4.95976574123168e-06dB,-6.93272874251340e-02°)
1.07848043169446e+00	(-4.96662629572728e-06dB,-6.93753580657372e-02°)
1.07922823650444e+00	(-4.97349636814584e-06dB,-6.94234620378548e-02°)
1.07997655983290e+00	(-4.98037597584529e-06dB,-6.94715993645982e-02°)
1.08072540203936e+00	(-4.98726512171864e-06dB,-6.95197700690950e-02°)
1.08147476348363e+00	(-4.99416382408814e-06dB,-6.95679741744888e-02°)
1.08222464452573e+00	(-5.00107210031172e-06dB,-6.96162117039391e-02°)
1.08297504552594e+00	(-5.00798996196134e-06dB,-6.96644826806218e-02°)
1.08372596684479e+00	(-5.01491741578732e-06dB,-6.97127871277285e-02°)
1.08447740884308e+00	(-5.02185448011191e-06dB,-6.97611250684671e-02°)
1.08522937188182e+00	(-5.02880117132872e-06dB,-6.98094965260614e-02°)
1.08598185632231e+00	(-5.03575749522372e-06dB,-6.98579015237517e-02°)
1.08673486252607e+00	(-5.04272346819053e-06dB,-6.99063400847938e-02°)
1.08748839085490e+00	(-5.04969911144439e-06dB,-6.99548122324603e-02°)
1.08824244167082e+00	(-5.05668442980695e-06dB,-7.00033179900394e-02°)
1.08899701533612e+00	(-5.06367943774316e-06dB,-7.00518573808356e-02°)
1.08975211221334e+00	(-5.07068414586065e-06dB,-7.01004304281698e-02°)
1.09050773266527e+00	(-5.07769857826765e-06dB,-7.01490371553788e-02°)
1.09126387705495e+00	(-5.08472273207119e-06dB,-7.01976775858157e-02°)
1.09202054574567e+00	(-5.09175663523682e-06dB,-7.02463517428496e-02°)
1.09277773910097e+00	(-5.09880029837216e-06dB,-7.02950596498662e-02°)
1.09353545748465e+00	(-5.10585372822754e-06dB,-7.03438013302670e-02°)
1.09429370126075e+00	(-5.11291694698252e-06dB,-7.03925768074699e-02°)
1.09505247079359e+00	(-5.11998996428041e-06dB,-7.04413861049091e-02°)
1.09581176644771e+00	(-5.12707279072883e-06dB,-7.04902292460350e-02°)
1.09657158858791e+00	(-5.13416544465005e-06dB,-7.05391062543142e-02°)
1.09733193757926e+00	(-5.14126793665171e-06dB,-7.05880171532297e-02°)
1.09809281378707e+00	(-5.14838028312739e-06dB,-7.06369619662805e-02°)
1.09885421757690e+00	(-5.15550249082742e-06dB,-7.06859407169824e-02°)
1.09961614931457e+00	(-5.16263458675301e-06dB,-7.07349534288669e-02°)
1.10037860936615e+00	(-5.16977657669015e-06dB,-7.07840001254822e-02°)
1.10114159809798e+00	(-5.17692846738916e-06dB,-7.08330808303929e-02°)
1.10190511587663e+00	(-5.18409028585126e-06dB,-7.08821955671796e-02°)
1.10266916306893e+00	(-5.19126203400512e-06dB,-7.09313443594395e-02°)
1.10343374004198e+00	(-5.19844373595896e-06dB,-7.09805272307862e-02°)
1.10419884716311e+00	(-5.20563539749879e-06dB,-7.10297442048493e-02°)
1.10496448479993e+00	(-5.21283704080417e-06dB,-7.10789953052753e-02°)
1.10573065332029e+00	(-5.22004867262543e-06dB,-7.11282805557267e-02°)
1.10649735309229e+00	(-5.22727030646317e-06dB,-7.11775999798826e-02°)
1.10726458448430e+00	(-5.23450195871101e-06dB,-7.12269536014386e-02°)
1.10803234786494e+00	(-5.24174364479821e-06dB,-7.12763414441063e-02°)
1.10880064360309e+00	(-5.24899537436808e-06dB,-7.13257635316144e-02°)
1.10956947206786e+00	(-5.25625716670721e-06dB,-7.13752198877074e-02°)
1.11033883362866e+00	(-5.26352902856591e-06dB,-7.14247105361467e-02°)
1.11110872865511e+00	(-5.27081098115944e-06dB,-7.14742355007101e-02°)
1.11187915751713e+00	(-5.27810303895274e-06dB,-7.15237948051916e-02°)
1.11265012058485e+00	(-5.28540520966046e-06dB,-7.15733884734021e-02°)
1.11342161822871e+00	(-5.29271750967619e-06dB,-7.16230165291689e-02°)
1.11419365081935e+00	(-5.30003995346489e-06dB,-7.16726789963355e-02°)
1.11496621872772e+00	(-5.30737255934881e-06dB,-7.17223758987624e-02°)
1.11573932232498e+00	(-5.31471533118530e-06dB,-7.17721072603263e-02°)
1.11651296198259e+00	(-5.32206829404691e-06dB,-7.18218731049206e-02°)
1.11728713807224e+00	(-5.32943145661261e-06dB,-7.18716734564554e-02°)
1.11806185096588e+00	(-5.33680483527602e-06dB,-7.19215083388571e-02°)
1.11883710103573e+00	(-5.34418843678744e-06dB,-7.19713777760688e-02°)
1.11961288865426e+00	(-5.35158228525511e-06dB,-7.20212817920502e-02°)
1.12038921419420e+00	(-5.35898639321533e-06dB,-7.20712204107778e-02°)
1.12116607802853e+00	(-5.36640076548975e-06dB,-7.21211936562444e-02°)
1.12194348053050e+00	(-5.37382543197257e-06dB,-7.21712015524596e-02°)
1.12272142207363e+00	(-5.38126039362816e-06dB,-7.22212441234497e-02°)
1.12349990303167e+00	(-5.38870566877875e-06dB,-7.22713213932576e-02°)
1.12427892377864e+00	(-5.39616127478230e-06dB,-7.23214333859428e-02°)
1.12505848468883e+00	(-5.40362722321077e-06dB,-7.23715801255817e-02°)
1.12583858613678e+00	(-5.41110352660043e-06dB,-7.24217616362671e-02°)
1.12661922849730e+00	(-5.41859020327356e-06dB,-7.24719779421088e-02°)
1.12740041214544e+00	(-5.42608726769510e-06dB,-7.25222290672330e-02°)
1.12818213745653e+00	(-5.43359472854404e-06dB,-7.25725150357829e-02°)
1.12896440480615e+00	(-5.44111260414262e-06dB,-7.26228358719183e-02°)
1.12974721457015e+00	(-5.44864091088446e-06dB,-7.26731915998159e-02°)
1.13053056712461e+00	(-5.45617966419884e-06dB,-7.27235822436689e-02°)
1.13131446284592e+00	(-5.46372886890741e-06dB,-7.27740078276875e-02°)
1.13209890211070e+00	(-5.47128855201139e-06dB,-7.28244683760986e-02°)
1.13288388529582e+00	(-5.47885871833246e-06dB,-7.28749639131460e-02°)
1.13366941277844e+00	(-5.48643938812153e-06dB,-7.29254944630901e-02°)
1.13445548493598e+00	(-5.49403057391488e-06dB,-7.29760600502084e-02°)
1.13524210214609e+00	(-5.50163229307046e-06dB,-7.30266606987949e-02°)
1.13602926478671e+00	(-5.50924455523158e-06dB,-7.30772964331607e-02°)
1.13681697323604e+00	(-5.51686737775615e-06dB,-7.31279672776337e-02°)
1.13760522787253e+00	(-5.52450077510914e-06dB,-7.31786732565586e-02°)
1.13839402907490e+00	(-5.53214476271982e-06dB,-7.32294143942971e-02°)
1.13918337722214e+00	(-5.53979935312449e-06dB,-7.32801907152277e-02°)
1.13997327269348e+00	(-5.54746456368107e-06dB,-7.33310022437458e-02°)
1.14076371586845e+00	(-5.55514040885452e-06dB,-7.33818490042638e-02°)
1.14155470712680e+00	(-5.56282689925248e-06dB,-7.34327310212109e-02°)
1.14234624684857e+00	(-5.57052405609018e-06dB,-7.34836483190333e-02°)
1.14313833541406e+00	(-5.57823188418930e-06dB,-7.35346009221942e-02°)
1.14393097320383e+00	(-5.58595041537270e-06dB,-7.35855888551736e-02°)
1.14472416059871e+00	(-5.59367964481876e-06dB,-7.36366121424688e-02°)
1.14551789797978e+00	(-5.60141960531467e-06dB,-7.36876708085937e-02°)
1.14631218572840e+00	(-5.60917029975344e-06dB,-7.37387648780796e-02°)
1.14710702422619e+00	(-5.61693174163568e-06dB,-7.37898943754742e-02°)
1.14790241385503e+00	(-5.62470395410531e-06dB,-7.38410593253430e-02°)
1.14869835499706e+00	(-5.63248694776997e-06dB,-7.38922597522679e-02°)
1.14949484803470e+00	(-5.64028074095190e-06dB,-7.39434956808481e-02°)
1.15029189335063e+00	(-5.64808534233011e-06dB,-7.39947671357000e-02°)
1.15108949132779e+00	(-5.65590077601281e-06dB,-7.40460741414567e-02°)
1.15188764234938e+00	(-5.66372704778601e-06dB,-7.40974167227688e-02°)
1.15268634679889e+00	(-5.67156417307898e-06dB,-7.41487949043036e-02°)
1.15348560506005e+00	(-5.67941217503563e-06dB,-7.42002087107457e-02°)
1.15428541751686e+00	(-5.68727106329927e-06dB,-7.42516581667969e-02°)
1.15508578455361e+00	(-5.69514085715649e-06dB,-7.43031432971759e-02°)
1.15588670655483e+00	(-5.70302156432195e-06dB,-7.43546641266188e-02°)
1.15668818390531e+00	(-5.71091320697521e-06dB,-7.44062206798787e-02°)
1.15749021699015e+00	(-5.71881579186662e-06dB,-7.44578129817258e-02°)
1.15829280619467e+00	(-5.72672934503305e-06dB,-7.45094410569475e-02°)
1.15909595190448e+00	(-5.73465387226050e-06dB,-7.45611049303486e-02°)
1.15989965450546e+00	(-5.74258939476423e-06dB,-7.46128046267509e-02°)
1.16070391438375e+00	(-5.75053593183082e-06dB,-7.46645401709933e-02°)
1.16150873192575e+00	(-5.75849348635329e-06dB,-7.47163115879323e-02°)
1.16231410751814e+00	(-5.76646207665391e-06dB,-7.47681189024413e-02°)
1.16312004154788e+00	(-5.77444172876956e-06dB,-7.48199621394110e-02°)
1.16392653440216e+00	(-5.78243244462893e-06dB,-7.48718413237495e-02°)
1.16473358646848e+00	(-5.79043425026891e-06dB,-7.49237564803821e-02°)
1.16554119813459e+00	(-5.79844715533281e-06dB,-7.49757076342513e-02°)
1.16634936978850e+00	(-5.80647117621424e-06dB,-7.50276948103169e-02°)
1.16715810181850e+00	(-5.81450632641382e-06dB,-7.50797180335563e-02°)
1.16796739461315e+00	(-5.82255262136084e-06dB,-7.51317773289638e-02°)
1.16877724856127e+00	(-5.83061008709218e-06dB,-7.51838727215512e-02°)
1.16958766405198e+00	(-5.83867872071490e-06dB,-7.52360042363477e-02°)
1.17039864147462e+00	(-5.84675855598050e-06dB,-7.52881718983999e-02°)
1.17121018121884e+00	(-5.85484959481768e-06dB,-7.53403757327717e-02°)
1.17202228367454e+00	(-5.86295186037034e-06dB,-7.53926157645441e-02°)
1.17283494923191e+00	(-5.87106536517477e-06dB,-7.54448920188160e-02°)
1.17364817828138e+00	(-5.87919012658892e-06dB,-7.54972045207034e-02°)
1.17446197121368e+00	(-5.88732615907774e-06dB,-7.55495532953397e-02°)
1.17527632841980e+00	(-5.89547347517753e-06dB,-7.56019383678758e-02°)
1.17609125029099e+00	(-5.90363209803219e-06dB,-7.56543597634802e-02°)
1.17690673721880e+00	(-5.91180203439204e-06dB,-7.57068175073384e-02°)
1.17772278959501e+00	(-5.91998331029399e-06dB,-7.57593116246539e-02°)
1.17853940781171e+00	(-5.92817592959538e-06dB,-7.58118421406473e-02°)
1.17935659226125e+00	(-5.93637991351146e-06dB,-7.58644090805569e-02°)
1.18017434333623e+00	(-5.94459528615046e-06dB,-7.59170124696383e-02°)
1.18099266142956e+00	(-5.95282204944107e-06dB,-7.59696523331647e-02°)
1.18181154693440e+00	(-5.96106022652720e-06dB,-7.60223286964270e-02°)
1.18263100024417e+00	(-5.96930983380246e-06dB,-7.60750415847334e-02°)
1.18345102175260e+00	(-5.97757088283882e-06dB,-7.61277910234097e-02°)
1.18427161185366e+00	(-5.98584339292287e-06dB,-7.61805770377993e-02°)
1.18509277094161e+00	(-5.99412738044823e-06dB,-7.62333996532631e-02°)
1.18591449941098e+00	(-6.00242285891553e-06dB,-7.62862588951799e-02°)
1.18673679765656e+00	(-6.01072984278971e-06dB,-7.63391547889455e-02°)
1.18755966607344e+00	(-6.01904835232170e-06dB,-7.63920873599739e-02°)
1.18838310505696e+00	(-6.02737840390512e-06dB,-7.64450566336963e-02°)
1.18920711500275e+00	(-6.03572001007626e-06dB,-7.64980626355619e-02°)
1.19003169630671e+00	(-6.04407318722873e-06dB,-7.65511053910372e-02°)
1.19085684936500e+00	(-6.05243795754212e-06dB,-7.66041849256066e-02°)
1.19168257457408e+00	(-6.06081432776675e-06dB,-7.66573012647720e-02°)
1.19250887233066e+00	(-6.06920231526057e-06dB,-7.67104544340531e-02°)
1.19333574303175e+00	(-6.07760194316748e-06dB,-7.67636444589872e-02°)
1.19416318707462e+00	(-6.08601322305946e-06dB,-7.68168713651295e-02°)
1.19499120485682e+00	(-6.09443616747280e-06dB,-7.68701351780528e-02°)
1.19581979677616e+00	(-6.10287080148007e-06dB,-7.69234359233474e-02°)
1.19664896323075e+00	(-6.11131713279593e-06dB,-7.69767736266217e-02°)
1.19747870461896e+00	(-6.11977518456429e-06dB,-7.70301483135017e-02°)
1.19830902133945e+00	(-6.12824496932146e-06dB,-7.70835600096311e-02°)
1.19913991379115e+00	(-6.13672650442536e-06dB,-7.71370087406717e-02°)
1.19997138237325e+00	(-6.14521980048365e-06dB,-7.71904945323026e-02°)
1.20080342748524e+00	(-6.15372488449754e-06dB,-7.72440174102210e-02°)
1.20163604952689e+00	(-6.16224176225305e-06dB,-7.72975774001421e-02°)
1.20246924889821e+00	(-6.17077046268004e-06dB,-7.73511745277985e-02°)
1.20330302599954e+00	(-6.17931098867155e-06dB,-7.74048088189408e-02°)
1.20413738123145e+00	(-6.18786336626446e-06dB,-7.74584802993377e-02°)
1.20497231499482e+00	(-6.19642760028045e-06dB,-7.75121889947755e-02°)
1.20580782769080e+00	(-6.20500372350672e-06dB,-7.75659349310584e-02°)
1.20664391972080e+00	(-6.21359174269359e-06dB,-7.76197181340086e-02°)
1.20748059148653e+00	(-6.22219167327035e-06dB,-7.76735386294661e-02°)
1.20831784338998e+00	(-6.23080353259494e-06dB,-7.77273964432890e-02°)
1.20915567583340e+00	(-6.23942733995397e-06dB,-7.77812916013530e-02°)
1.20999408921933e+00	(-6.24806310981238e-06dB,-7.78352241295521e-02°)
1.21083308395059e+00	(-6.25671086531410e-06dB,-7.78891940537980e-02°)
1.21167266043028e+00	(-6.26537061417378e-06dB,-7.79432014000205e-02°)
1.21251281906177e+00	(-6.27404237471369e-06dB,-7.79972461941673e-02°)
1.21335356024873e+00	(-6.28272616622043e-06dB,-7.80513284622042e-02°)
1.21419488439508e+00	(-6.29142200508762e-06dB,-7.81054482301148e-02°)
